
T3318 000:292 SEGGER J-Link V4.98e Log File (0001ms, 0268ms total)
T3318 000:292 DLL Compiled: May  5 2015 11:00:52 (0001ms, 0268ms total)
T3318 000:292 Logging started @ 2025-06-09 20:31 (0001ms, 0268ms total)
T3318 000:293 JLINK_SetWarnOutHandler(...) (0000ms, 0268ms total)
T3318 000:293 JLINK_OpenEx(...)
Firmware: J-Link V9 compiled Apr 21 2015 18:10:40
Hardware: V9.70
S/N: 59768880
Feature(s): RDI, GDB, FlashDL, FlashBP, JFlash  returns O.K. (0266ms, 0534ms total)
T3318 000:559 JLINK_SetErrorOutHandler(...) (0000ms, 0534ms total)
T3318 000:559 JLINK_ExecCommand("ProjectFile = "D:\WorkSpace\GitWorkSpace\03_ESSH_2024\ESSH_2024\SoftWare\中显科技组态屏\STM32MCU\Dev\MDK-ARM\JLinkSettings.ini"", ...)  returns 0x00 (0000ms, 0534ms total)
T3318 000:559 JLINK_ExecCommand("Device = STM32F407VE", ...)Device "STM32F407VE" selected.  returns 0x00 (0001ms, 0535ms total)
T3318 000:560 JLINK_ExecCommand("DisableConnectionTimeout", ...)  returns 0x01 (0000ms, 0535ms total)
T3318 000:560 JLINK_GetHardwareVersion()  returns 0x17AE8 (0000ms, 0535ms total)
T3318 000:560 JLINK_GetDLLVersion()  returns 49805 (0000ms, 0535ms total)
T3318 000:560 JLINK_GetFirmwareString(...) (0000ms, 0535ms total)
T3318 000:560 JLINK_GetDLLVersion()  returns 49805 (0000ms, 0535ms total)
T3318 000:560 JLINK_GetCompileDateTime() (0000ms, 0535ms total)
T3318 000:561 JLINK_GetFirmwareString(...) (0000ms, 0535ms total)
T3318 000:561 JLINK_GetHardwareVersion()  returns 0x17AE8 (0000ms, 0535ms total)
T3318 000:561 JLINK_TIF_Select(JLINKARM_TIF_SWD)  returns 0x00 (0000ms, 0535ms total)
T3318 000:561 JLINK_SetSpeed(1000) (0001ms, 0536ms total)
T3318 000:562 JLINK_GetId() >0x108 TIF>Found SWD-DP with ID 0x2BA01477 >0x0D TIF> >0x28 TIF> >0x0D TIF> >0x28 TIF> >0x0D TIF> >0x21 TIF> >0x0D TIF> >0x28 TIF> >0x0D TIF> >0x28 TIF> >0x0D TIF> >0x28 TIF> >0x0D TIF> >0x21 TIF> >0x0D TIF> >0x21 TIF> >0x0D TIF> >0x28 TIF> >0x0D TIF> >0x21 TIF> >0x0D TIF> >0x21 TIF> >0x0D TIF> >0x28 TIF> >0x0D TIF> >0x21 TIF> >0x0D TIF> >0x21 TIF> >0x108 TIF>Found SWD-DP with ID 0x2BA01477 >0x0D TIF> >0x21 TIF> >0x0D TIF> >0x28 TIF> >0x0D TIF> >0x28 TIF> >0x0D TIF> >0x21 TIF>
 >0x0D TIF> >0x28 TIF> >0x0D TIF> >0x21 TIF> >0x0D TIF> >0x21 TIF> >0x0D TIF> >0x21 TIF> >0x0D TIF> >0x21 TIF> >0x0D TIF> >0x28 TIF> >0x0D TIF> >0x28 TIF> >0x0D TIF> >0x21 TIF> >0x0D TIF> >0x28 TIF> >0x0D TIF> >0x28 TIF> >0x0D TIF> >0x28 TIF> >0x0D TIF> >0x21 TIF> >0x0D TIF> >0x21 TIF> >0x0D TIF> >0x28 TIF> >0x0D TIF> >0x21 TIF> >0x0D TIF> >0x21 TIF>Found Cortex-M4 r0p1, Little endian. -- CPU_WriteMem(4 bytes @ 0xE0002000) -- CPU_ReadMem(4 bytes @ 0xE000EDF0) -- CPU_ReadMem(4 bytes @ 0xE0002000)
FPUnit: 6 code (BP) slots and 2 literal slots -- CPU_ReadMem(4 bytes @ 0xE000EDFC) -- CPU_ReadMem(4 bytes @ 0xE0001000) -- CPU_WriteMem(4 bytes @ 0xE0001000) -- CPU_ReadMem(4 bytes @ 0xE000ED88) -- CPU_WriteMem(4 bytes @ 0xE000ED88) -- CPU_ReadMem(4 bytes @ 0xE000ED88) -- CPU_WriteMem(4 bytes @ 0xE000ED88)CoreSight components:ROMTbl 0 @ E00FF000 -- CPU_ReadMem(16 bytes @ 0xE00FF000) -- CPU_ReadMem(16 bytes @ 0xE000EFF0) -- CPU_ReadMem(16 bytes @ 0xE000EFE0)
ROMTbl 0 [0]: FFF0F000, CID: B105E00D, PID: 000BB00C SCS -- CPU_ReadMem(16 bytes @ 0xE0001FF0) -- CPU_ReadMem(16 bytes @ 0xE0001FE0)ROMTbl 0 [1]: FFF02000, CID: B105E00D, PID: 003BB002 DWT -- CPU_ReadMem(16 bytes @ 0xE0002FF0) -- CPU_ReadMem(16 bytes @ 0xE0002FE0)ROMTbl 0 [2]: FFF03000, CID: B105E00D, PID: 002BB003 FPB -- CPU_ReadMem(16 bytes @ 0xE0000FF0) -- CPU_ReadMem(16 bytes @ 0xE0000FE0)ROMTbl 0 [3]: FFF01000, CID: B105E00D, PID: 003BB001 ITM -- CPU_ReadMem(16 bytes @ 0xE00FF010)
 -- CPU_ReadMem(16 bytes @ 0xE0040FF0) -- CPU_ReadMem(16 bytes @ 0xE0040FE0)ROMTbl 0 [4]: FFF41000, CID: B105900D, PID: 000BB9A1 TPIU -- CPU_ReadMem(16 bytes @ 0xE0041FF0) -- CPU_ReadMem(16 bytes @ 0xE0041FE0)ROMTbl 0 [5]: FFF42000, CID: B105900D, PID: 000BB925 ETM >0x0D TIF> >0x21 TIF>  returns 0x2BA01477 (0038ms, 0574ms total)
T3318 000:600 JLINK_GetDLLVersion()  returns 49805 (0000ms, 0574ms total)
T3318 000:600 JLINK_CORE_GetFound()  returns 0xE0000FF (0000ms, 0574ms total)
T3318 000:600 JLINK_GetDebugInfo(0x100) -- Value=0xE00FF003  returns 0x00 (0000ms, 0574ms total)
T3318 000:601 JLINK_ReadMem (0xE00FF000, 0x0020 Bytes, ...) -- CPU is running -- CPU_ReadMem(32 bytes @ 0xE00FF000) - Data: 03 F0 F0 FF 03 20 F0 FF 03 30 F0 FF 03 10 F0 FF ...  returns 0x00 (0001ms, 0575ms total)
T3318 000:602 JLINK_ReadMem (0xE000EFF0, 0x0010 Bytes, ...) -- CPU is running -- CPU_ReadMem(16 bytes @ 0xE000EFF0) - Data: 0D 00 00 00 E0 00 00 00 05 00 00 00 B1 00 00 00  returns 0x00 (0000ms, 0575ms total)
T3318 000:602 JLINK_ReadMem (0xE000EFD0, 0x0020 Bytes, ...) -- CPU is running -- CPU_ReadMem(32 bytes @ 0xE000EFD0) - Data: 04 00 00 00 00 00 00 00 00 00 00 00 00 00 00 00 ...  returns 0x00 (0001ms, 0576ms total)
T3318 000:603 JLINK_ReadMem (0xE0001FF0, 0x0010 Bytes, ...) -- CPU is running -- CPU_ReadMem(16 bytes @ 0xE0001FF0) - Data: 0D 00 00 00 E0 00 00 00 05 00 00 00 B1 00 00 00  returns 0x00 (0001ms, 0577ms total)
T3318 000:604 JLINK_ReadMem (0xE0001FD0, 0x0020 Bytes, ...) -- CPU is running -- CPU_ReadMem(32 bytes @ 0xE0001FD0) - Data: 04 00 00 00 00 00 00 00 00 00 00 00 00 00 00 00 ...  returns 0x00 (0001ms, 0578ms total)
T3318 000:605 JLINK_ReadMem (0xE0002FF0, 0x0010 Bytes, ...) -- CPU is running -- CPU_ReadMem(16 bytes @ 0xE0002FF0) - Data: 0D 00 00 00 E0 00 00 00 05 00 00 00 B1 00 00 00  returns 0x00 (0000ms, 0578ms total)
T3318 000:605 JLINK_ReadMem (0xE0002FD0, 0x0020 Bytes, ...) -- CPU is running -- CPU_ReadMem(32 bytes @ 0xE0002FD0) - Data: 04 00 00 00 00 00 00 00 00 00 00 00 00 00 00 00 ...  returns 0x00 (0001ms, 0579ms total)
T3318 000:606 JLINK_ReadMem (0xE0000FF0, 0x0010 Bytes, ...) -- CPU is running -- CPU_ReadMem(16 bytes @ 0xE0000FF0) - Data: 0D 00 00 00 E0 00 00 00 05 00 00 00 B1 00 00 00  returns 0x00 (0001ms, 0580ms total)
T3318 000:607 JLINK_ReadMem (0xE0000FD0, 0x0020 Bytes, ...) -- CPU is running -- CPU_ReadMem(32 bytes @ 0xE0000FD0) - Data: 04 00 00 00 00 00 00 00 00 00 00 00 00 00 00 00 ...  returns 0x00 (0001ms, 0581ms total)
T3318 000:608 JLINK_ReadMem (0xE0040FF0, 0x0010 Bytes, ...) -- CPU is running -- CPU_ReadMem(16 bytes @ 0xE0040FF0) - Data: 0D 00 00 00 90 00 00 00 05 00 00 00 B1 00 00 00  returns 0x00 (0001ms, 0582ms total)
T3318 000:609 JLINK_ReadMem (0xE0040FD0, 0x0020 Bytes, ...) -- CPU is running -- CPU_ReadMem(32 bytes @ 0xE0040FD0) - Data: 04 00 00 00 00 00 00 00 00 00 00 00 00 00 00 00 ...  returns 0x00 (0001ms, 0583ms total)
T3318 000:610 JLINK_ReadMem (0xE0041FF0, 0x0010 Bytes, ...) -- CPU is running -- CPU_ReadMem(16 bytes @ 0xE0041FF0) - Data: 0D 00 00 00 90 00 00 00 05 00 00 00 B1 00 00 00  returns 0x00 (0001ms, 0584ms total)
T3318 000:611 JLINK_ReadMem (0xE0041FD0, 0x0020 Bytes, ...) -- CPU is running -- CPU_ReadMem(32 bytes @ 0xE0041FD0) - Data: 04 00 00 00 00 00 00 00 00 00 00 00 00 00 00 00 ...  returns 0x00 (0001ms, 0585ms total)
T3318 000:612 JLINK_ReadMemU32(0xE000EF40, 0x0001 Items, ...) -- CPU is running -- CPU_ReadMem(4 bytes @ 0xE000EF40) - Data: 21 00 11 10  returns 0x01 (0000ms, 0585ms total)
T3318 000:612 JLINK_ReadMemU32(0xE000EF44, 0x0001 Items, ...) -- CPU is running -- CPU_ReadMem(4 bytes @ 0xE000EF44) - Data: 11 00 00 11  returns 0x01 (0001ms, 0586ms total)
T3318 000:613 JLINK_ReadMemU32(0xE000ED00, 0x0001 Items, ...) -- CPU is running -- CPU_ReadMem(4 bytes @ 0xE000ED00) - Data: 41 C2 0F 41  returns 0x01 (0001ms, 0587ms total)
T3318 000:614 JLINK_SetResetType(JLINKARM_RESET_TYPE_NORMAL)  returns JLINKARM_RESET_TYPE_NORMAL (0000ms, 0587ms total)
T3318 000:614 JLINK_Reset() -- CPU is running -- CPU_WriteMem(4 bytes @ 0xE000EDF0) -- CPU is running -- CPU_WriteMem(4 bytes @ 0xE000EDFC) >0x35 TIF> -- CPU is running -- CPU_WriteMem(4 bytes @ 0xE000ED0C) -- CPU is running -- CPU_ReadMem(4 bytes @ 0xE000EDF0) -- CPU is running -- CPU_ReadMem(4 bytes @ 0xE000EDF0) -- CPU is running -- CPU_WriteMem(4 bytes @ 0xE000EDF0) -- CPU is running -- CPU_WriteMem(4 bytes @ 0xE000EDFC) -- CPU is running -- CPU_ReadMem(4 bytes @ 0xE000EDF0)
 -- CPU_WriteMem(4 bytes @ 0xE0002000) -- CPU_ReadMem(4 bytes @ 0xE000EDFC) -- CPU_ReadMem(4 bytes @ 0xE0001000) (0020ms, 0607ms total)
T3318 000:634 JLINK_ReadReg(R15 (PC))  returns 0x08000330 (0000ms, 0607ms total)
T3318 000:634 JLINK_ReadReg(XPSR)  returns 0x01000000 (0000ms, 0607ms total)
T3318 000:634 JLINK_Halt()  returns 0x00 (0000ms, 0607ms total)
T3318 000:634 JLINK_IsHalted()  returns TRUE (0000ms, 0607ms total)
T3318 000:634 JLINK_ReadMemU32(0xE000EDF0, 0x0001 Items, ...) -- CPU_ReadMem(4 bytes @ 0xE000EDF0) - Data: 03 00 03 00  returns 0x01 (0001ms, 0608ms total)
T3318 000:635 JLINK_WriteU32(0xE000EDF0, 0xA05F0003) -- CPU_WriteMem(4 bytes @ 0xE000EDF0)  returns 0x00 (0000ms, 0608ms total)
T3318 000:635 JLINK_WriteU32(0xE000EDFC, 0x01000000) -- CPU_WriteMem(4 bytes @ 0xE000EDFC)  returns 0x00 (0002ms, 0610ms total)
T3318 000:637 JLINK_GetHWStatus(...)  returns 0x00 (0000ms, 0610ms total)
T3318 000:638 JLINK_GetNumBPUnits(Type = 0xFFFFFF00)  returns 0x06 (0000ms, 0610ms total)
T3318 000:638 JLINK_GetNumBPUnits(Type = 0xF0)  returns 0x2000 (0000ms, 0610ms total)
T3318 000:638 JLINK_GetNumWPUnits()  returns 0x04 (0000ms, 0610ms total)
T3318 000:638 JLINK_GetSpeed()  returns 0x3E8 (0000ms, 0610ms total)
T3318 000:638 JLINK_ReadMemU32(0xE000E004, 0x0001 Items, ...) -- CPU_ReadMem(4 bytes @ 0xE000E004) - Data: 02 00 00 00  returns 0x01 (0000ms, 0610ms total)
T3318 000:638 JLINK_ReadMemU32(0xE000E004, 0x0001 Items, ...) -- CPU_ReadMem(4 bytes @ 0xE000E004) - Data: 02 00 00 00  returns 0x01 (0001ms, 0611ms total)
T3318 000:639 JLINK_WriteMem(0xE0001000, 0x001C Bytes, ...) - Data: 01 00 00 00 00 00 00 00 00 00 00 00 00 00 00 00 ... -- CPU_WriteMem(28 bytes @ 0xE0001000)  returns 0x1C (0001ms, 0612ms total)
T3318 000:640 JLINK_ReadMem (0xE0001000, 0x001C Bytes, ...) -- CPU_ReadMem(28 bytes @ 0xE0001000) - Data: 01 00 00 40 00 00 00 00 00 00 00 00 00 00 00 00 ...  returns 0x00 (0001ms, 0613ms total)
T3318 000:641 JLINK_ReadReg(R15 (PC))  returns 0x08000330 (0000ms, 0613ms total)
T3318 000:641 JLINK_ReadReg(XPSR)  returns 0x01000000 (0000ms, 0613ms total)
T3318 000:777 JLINK_SetResetType(JLINKARM_RESET_TYPE_NORMAL)  returns JLINKARM_RESET_TYPE_NORMAL (0000ms, 0613ms total)
T3318 000:777 JLINK_Reset() -- CPU_WriteMem(4 bytes @ 0xE000EDF0) -- CPU_WriteMem(4 bytes @ 0xE000EDFC) >0x35 TIF> -- CPU_WriteMem(4 bytes @ 0xE000ED0C) -- CPU_ReadMem(4 bytes @ 0xE000EDF0) -- CPU_ReadMem(4 bytes @ 0xE000EDF0) -- CPU_WriteMem(4 bytes @ 0xE000EDF0) -- CPU_WriteMem(4 bytes @ 0xE000EDFC) -- CPU is running -- CPU_ReadMem(4 bytes @ 0xE000EDF0) -- CPU_WriteMem(4 bytes @ 0xE0002000) -- CPU_ReadMem(4 bytes @ 0xE000EDFC) -- CPU_ReadMem(4 bytes @ 0xE0001000) (0025ms, 0638ms total)
T3318 000:802 JLINK_ReadReg(R15 (PC))  returns 0x08000330 (0000ms, 0638ms total)
T3318 000:802 JLINK_ReadReg(XPSR)  returns 0x01000000 (0000ms, 0638ms total)
T3318 000:805 JLINK_ReadMem (0x08000230, 0x003C Bytes, ...) -- CPU_ReadMem(128 bytes @ 0x08000200) -- Updating C cache (128 bytes @ 0x08000200) -- Read from C cache (60 bytes @ 0x08000230) - Data: 52 07 28 BF 30 C1 48 BF 0B 60 70 47 1F B5 16 F0 ...  returns 0x00 (0003ms, 0641ms total)
T3318 000:808 JLINK_ReadMem (0x0800026C, 0x003C Bytes, ...) -- CPU_ReadMem(64 bytes @ 0x08000280) -- Updating C cache (64 bytes @ 0x08000280) -- Read from C cache (60 bytes @ 0x0800026C) - Data: 35 FB 00 00 2C 4B 19 68 08 68 B0 E8 F0 4F 80 F3 ...  returns 0x00 (0001ms, 0642ms total)
T3318 000:809 JLINK_ReadMem (0x080002A8, 0x003C Bytes, ...) -- CPU_ReadMem(64 bytes @ 0x080002C0) -- Updating C cache (64 bytes @ 0x080002C0) -- Read from C cache (60 bytes @ 0x080002A8) - Data: 4F 8F BF F3 6F 8F 00 DF 00 BF 00 BF 08 ED 00 E0 ...  returns 0x00 (0002ms, 0644ms total)
T3318 000:811 JLINK_ReadMem (0x080002E4, 0x003C Bytes, ...) -- CPU_ReadMem(64 bytes @ 0x08000300) -- Updating C cache (64 bytes @ 0x08000300) -- Read from C cache (60 bytes @ 0x080002E4) - Data: F0 4F 10 60 09 B4 4F F0 50 00 80 F3 11 88 BF F3 ...  returns 0x00 (0001ms, 0645ms total)
T3318 000:812 JLINK_ReadMem (0x08000320, 0x003C Bytes, ...) -- CPU_ReadMem(64 bytes @ 0x08000340) -- Updating C cache (64 bytes @ 0x08000340) -- Read from C cache (60 bytes @ 0x08000320) - Data: 6F 8F 70 47 20 00 00 20 EF F3 05 80 70 47 00 00 ...  returns 0x00 (0001ms, 0646ms total)
T3318 002:450 JLINK_ReadMem (0x20006CDC, 0x0002 Bytes, ...) -- CPU_ReadMem(64 bytes @ 0x20006CC0) -- Updating C cache (64 bytes @ 0x20006CC0) -- Read from C cache (2 bytes @ 0x20006CDC) - Data: 00 00  returns 0x00 (0002ms, 0648ms total)
T4658 002:517 JLINK_SetBPEx(Addr = 0x08011830, Type = 0xFFFFFFF2)  returns 0x00000001 (0000ms, 0648ms total)
T4658 002:517 JLINK_SetBPEx(Addr = 0x08006BE0, Type = 0xFFFFFFF2)  returns 0x00000002 (0000ms, 0648ms total)
T4658 002:517 JLINK_SetBPEx(Addr = 0x08006C06, Type = 0xFFFFFFF2)  returns 0x00000003 (0000ms, 0648ms total)
T4658 002:517 JLINK_Go() -- CPU_WriteMem(4 bytes @ 0xE0002000) -- CPU_WriteMem(4 bytes @ 0xE0002000) -- CPU_WriteMem(4 bytes @ 0xE0002000) -- CPU_ReadMem(4 bytes @ 0xE0001000) -- CPU_WriteMem(4 bytes @ 0xE0002008) -- CPU_WriteMem(4 bytes @ 0xE000200C) -- CPU_WriteMem(4 bytes @ 0xE0002010) -- CPU_WriteMem(4 bytes @ 0xE0002014) -- CPU_WriteMem(4 bytes @ 0xE0002018) -- CPU_WriteMem(4 bytes @ 0xE000201C) -- CPU_WriteMem(4 bytes @ 0xE0001004) (0007ms, 0655ms total)
T4658 002:625 JLINK_IsHalted()  returns TRUE (0006ms, 0661ms total)
T4658 002:631 JLINK_Halt()  returns 0x00 (0000ms, 0655ms total)
T4658 002:631 JLINK_IsHalted()  returns TRUE (0000ms, 0655ms total)
T4658 002:631 JLINK_IsHalted()  returns TRUE (0000ms, 0655ms total)
T4658 002:631 JLINK_IsHalted()  returns TRUE (0000ms, 0655ms total)
T4658 002:631 JLINK_ReadReg(R15 (PC))  returns 0x08011830 (0000ms, 0655ms total)
T4658 002:631 JLINK_ReadReg(XPSR)  returns 0x21000000 (0000ms, 0655ms total)
T4658 002:631 JLINK_ClrBPEx(BPHandle = 0x00000001)  returns 0x00 (0000ms, 0655ms total)
T4658 002:631 JLINK_ClrBPEx(BPHandle = 0x00000002)  returns 0x00 (0000ms, 0655ms total)
T4658 002:631 JLINK_ClrBPEx(BPHandle = 0x00000003)  returns 0x00 (0000ms, 0655ms total)
T4658 002:631 JLINK_ReadMemU32(0xE000ED30, 0x0001 Items, ...) -- CPU_ReadMem(4 bytes @ 0xE000ED30) - Data: 03 00 00 00  returns 0x01 (0000ms, 0655ms total)
T4658 002:631 JLINK_ReadMemU32(0xE0001028, 0x0001 Items, ...) -- CPU_ReadMem(4 bytes @ 0xE0001028) - Data: 00 00 00 00  returns 0x01 (0001ms, 0656ms total)
T4658 002:632 JLINK_ReadMemU32(0xE0001038, 0x0001 Items, ...) -- CPU_ReadMem(4 bytes @ 0xE0001038) - Data: 00 02 00 00  returns 0x01 (0000ms, 0656ms total)
T4658 002:632 JLINK_ReadMemU32(0xE0001048, 0x0001 Items, ...) -- CPU_ReadMem(4 bytes @ 0xE0001048) - Data: 00 00 00 00  returns 0x01 (0001ms, 0657ms total)
T4658 002:633 JLINK_ReadMemU32(0xE0001058, 0x0001 Items, ...) -- CPU_ReadMem(4 bytes @ 0xE0001058) - Data: 00 00 00 00  returns 0x01 (0000ms, 0657ms total)
T4658 002:633 JLINK_ReadReg(R0)  returns 0x2000ECB0 (0000ms, 0657ms total)
T4658 002:633 JLINK_ReadReg(R1)  returns 0x2000FCB0 (0000ms, 0657ms total)
T4658 002:633 JLINK_ReadReg(R2)  returns 0x2000FCB0 (0000ms, 0657ms total)
T4658 002:633 JLINK_ReadReg(R3)  returns 0x2000FCB0 (0000ms, 0657ms total)
T4658 002:633 JLINK_ReadReg(R4)  returns 0x00000000 (0000ms, 0657ms total)
T4658 002:633 JLINK_ReadReg(R5)  returns 0x2000EC4C (0000ms, 0657ms total)
T4658 002:633 JLINK_ReadReg(R6)  returns 0x00000000 (0000ms, 0657ms total)
T4658 002:633 JLINK_ReadReg(R7)  returns 0x00000000 (0001ms, 0658ms total)
T4658 002:634 JLINK_ReadReg(R8)  returns 0x00000000 (0000ms, 0658ms total)
T4658 002:634 JLINK_ReadReg(R9)  returns 0x00000000 (0000ms, 0658ms total)
T4658 002:634 JLINK_ReadReg(R10)  returns 0x08016F94 (0000ms, 0658ms total)
T4658 002:634 JLINK_ReadReg(R11)  returns 0x00000000 (0000ms, 0658ms total)
T4658 002:634 JLINK_ReadReg(R12)  returns 0x2000ECC0 (0000ms, 0658ms total)
T4658 002:634 JLINK_ReadReg(R13 (SP))  returns 0x20010CB0 (0000ms, 0658ms total)
T4658 002:634 JLINK_ReadReg(R14)  returns 0x0800025F (0000ms, 0658ms total)
T4658 002:634 JLINK_ReadReg(R15 (PC))  returns 0x08011830 (0000ms, 0658ms total)
T4658 002:634 JLINK_ReadReg(XPSR)  returns 0x21000000 (0000ms, 0658ms total)
T4658 002:634 JLINK_ReadReg(MSP)  returns 0x20010CB0 (0000ms, 0658ms total)
T4658 002:634 JLINK_ReadReg(PSP)  returns 0x00000000 (0000ms, 0658ms total)
T4658 002:634 JLINK_ReadReg(CFBP)  returns 0x04000000 (0000ms, 0658ms total)
T4658 002:634 JLINK_ReadReg(FPSCR)  returns 0x03000000 (0007ms, 0665ms total)
T4658 002:641 JLINK_ReadReg(FPS0)  returns 0x00000000 (0000ms, 0665ms total)
T4658 002:641 JLINK_ReadReg(FPS1)  returns 0x00000000 (0000ms, 0665ms total)
T4658 002:641 JLINK_ReadReg(FPS2)  returns 0x00000000 (0000ms, 0665ms total)
T4658 002:641 JLINK_ReadReg(FPS3)  returns 0x00000000 (0000ms, 0665ms total)
T4658 002:641 JLINK_ReadReg(FPS4)  returns 0x00000000 (0000ms, 0665ms total)
T4658 002:641 JLINK_ReadReg(FPS5)  returns 0x00000000 (0000ms, 0665ms total)
T4658 002:641 JLINK_ReadReg(FPS6)  returns 0x00000000 (0000ms, 0665ms total)
T4658 002:641 JLINK_ReadReg(FPS7)  returns 0x00000000 (0000ms, 0665ms total)
T4658 002:641 JLINK_ReadReg(FPS8)  returns 0x00000000 (0000ms, 0665ms total)
T4658 002:641 JLINK_ReadReg(FPS9)  returns 0x00000000 (0000ms, 0665ms total)
T4658 002:641 JLINK_ReadReg(FPS10)  returns 0x00000000 (0000ms, 0665ms total)
T4658 002:641 JLINK_ReadReg(FPS11)  returns 0x00000000 (0000ms, 0665ms total)
T4658 002:641 JLINK_ReadReg(FPS12)  returns 0x00000000 (0000ms, 0665ms total)
T4658 002:641 JLINK_ReadReg(FPS13)  returns 0x00000000 (0000ms, 0665ms total)
T4658 002:641 JLINK_ReadReg(FPS14)  returns 0x00000000 (0000ms, 0665ms total)
T4658 002:641 JLINK_ReadReg(FPS15)  returns 0x00000000 (0000ms, 0665ms total)
T4658 002:641 JLINK_ReadReg(FPS16)  returns 0x00000000 (0000ms, 0665ms total)
T4658 002:641 JLINK_ReadReg(FPS17)  returns 0x00000000 (0000ms, 0665ms total)
T4658 002:641 JLINK_ReadReg(FPS18)  returns 0x00000000 (0000ms, 0665ms total)
T4658 002:641 JLINK_ReadReg(FPS19)  returns 0x00000000 (0000ms, 0665ms total)
T4658 002:641 JLINK_ReadReg(FPS20)  returns 0x00000000 (0000ms, 0665ms total)
T4658 002:641 JLINK_ReadReg(FPS21)  returns 0x00000000 (0001ms, 0666ms total)
T4658 002:642 JLINK_ReadReg(FPS22)  returns 0x00000000 (0000ms, 0666ms total)
T4658 002:642 JLINK_ReadReg(FPS23)  returns 0x00000000 (0000ms, 0666ms total)
T4658 002:642 JLINK_ReadReg(FPS24)  returns 0x00000000 (0000ms, 0666ms total)
T4658 002:642 JLINK_ReadReg(FPS25)  returns 0x00000000 (0000ms, 0666ms total)
T4658 002:642 JLINK_ReadReg(FPS26)  returns 0x00000000 (0000ms, 0666ms total)
T4658 002:642 JLINK_ReadReg(FPS27)  returns 0x00000000 (0000ms, 0666ms total)
T4658 002:642 JLINK_ReadReg(FPS28)  returns 0x00000000 (0000ms, 0666ms total)
T4658 002:642 JLINK_ReadReg(FPS29)  returns 0x00000000 (0000ms, 0666ms total)
T4658 002:642 JLINK_ReadReg(FPS30)  returns 0x00000000 (0000ms, 0666ms total)
T4658 002:642 JLINK_ReadReg(FPS31)  returns 0x00000000 (0000ms, 0666ms total)
T3318 002:655 JLINK_ReadMem (0x20006CDC, 0x0002 Bytes, ...) -- CPU_ReadMem(64 bytes @ 0x20006CC0) -- Updating C cache (64 bytes @ 0x20006CC0) -- Read from C cache (2 bytes @ 0x20006CDC) - Data: 00 00  returns 0x00 (0002ms, 0668ms total)
T3318 002:657 JLINK_ReadMem (0x08011730, 0x003C Bytes, ...) -- CPU_ReadMem(128 bytes @ 0x08011700) -- Updating C cache (128 bytes @ 0x08011700) -- Read from C cache (60 bytes @ 0x08011730) - Data: C4 B2 02 2C B1 DB 70 BD AE CB 00 20 00 20 14 49 ...  returns 0x00 (0002ms, 0670ms total)
T3318 002:659 JLINK_ReadMem (0x0801176C, 0x003C Bytes, ...) -- CPU_ReadMem(64 bytes @ 0x08011780) -- Updating C cache (64 bytes @ 0x08011780) -- Read from C cache (60 bytes @ 0x0801176C) - Data: 1A 71 00 EB 40 03 01 EB 43 03 5A 71 01 22 00 EB ...  returns 0x00 (0002ms, 0672ms total)
T3318 002:661 JLINK_ReadMem (0x080117A8, 0x003C Bytes, ...) -- CPU_ReadMem(64 bytes @ 0x080117C0) -- Updating C cache (64 bytes @ 0x080117C0) -- Read from C cache (60 bytes @ 0x080117A8) - Data: 05 D1 04 F1 14 00 00 F0 0F F8 45 EA 00 45 28 46 ...  returns 0x00 (0001ms, 0673ms total)
T3318 002:662 JLINK_ReadMem (0x080117E4, 0x001C Bytes, ...) -- Read from C cache (28 bytes @ 0x080117E4) - Data: FE F7 1E F8 02 20 FE F7 2B F8 03 20 FE F7 28 F8 ...  returns 0x00 (0000ms, 0673ms total)
T3318 002:662 JLINK_ReadMem (0x08011800, 0x0020 Bytes, ...) -- CPU_ReadMem(64 bytes @ 0x08011800) -- Updating C cache (64 bytes @ 0x08011800) -- Read from C cache (32 bytes @ 0x08011800) - Data: 00 21 04 20 F6 F7 D2 FB 01 21 02 20 F6 F7 CE FB ...  returns 0x00 (0002ms, 0675ms total)
T3318 002:664 JLINK_ReadMem (0x08011820, 0x003C Bytes, ...) -- CPU_ReadMem(64 bytes @ 0x08011840) -- Updating C cache (64 bytes @ 0x08011840) -- Read from C cache (60 bytes @ 0x08011820) - Data: FD F7 46 FD 08 B1 01 20 10 BD 00 20 10 BD 00 00 ...  returns 0x00 (0001ms, 0676ms total)
T4658 011:171 JLINK_SetBPEx(Addr = 0x08006BE0, Type = 0xFFFFFFF2)  returns 0x00000004 (0000ms, 0676ms total)
T4658 011:171 JLINK_SetBPEx(Addr = 0x08006C06, Type = 0xFFFFFFF2)  returns 0x00000005 (0001ms, 0677ms total)
T4658 011:172 JLINK_Go() -- CPU_WriteMem(4 bytes @ 0xE0002000) -- CPU_WriteMem(4 bytes @ 0xE0002000) -- CPU_ReadMem(4 bytes @ 0xE0001000) -- CPU_WriteMem(4 bytes @ 0xE0002008) -- CPU_WriteMem(4 bytes @ 0xE000200C) -- CPU_WriteMem(4 bytes @ 0xE0002010) (0005ms, 0682ms total)
T4658 011:278 JLINK_IsHalted()  returns FALSE (0001ms, 0683ms total)
T4658 011:380 JLINK_IsHalted()  returns FALSE (0000ms, 0682ms total)
T4658 011:481 JLINK_IsHalted()  returns FALSE (0001ms, 0683ms total)
T4658 011:582 JLINK_IsHalted()  returns FALSE (0001ms, 0683ms total)
T4658 011:684 JLINK_IsHalted()  returns FALSE (0007ms, 0689ms total)
T4658 011:792 JLINK_ReadMemU32(0xE0001004, 0x0001 Items, ...) -- CPU is running -- CPU_ReadMem(4 bytes @ 0xE0001004) - Data: 29 0A 2D 06  returns 0x01 (0001ms, 0683ms total)
T3318 011:807 JLINK_ReadMem (0x20006CDC, 0x0002 Bytes, ...) -- CPU is running -- CPU_ReadMem(2 bytes @ 0x20006CDC) - Data: 00 00  returns 0x00 (0002ms, 0685ms total)
T4658 011:809 JLINK_IsHalted()  returns FALSE (0001ms, 0686ms total)
T4658 011:911 JLINK_IsHalted()  returns FALSE (0000ms, 0685ms total)
T4658 012:011 JLINK_IsHalted()  returns FALSE (0000ms, 0685ms total)
T4658 012:113 JLINK_IsHalted()  returns FALSE (0000ms, 0685ms total)
T4658 012:214 JLINK_IsHalted()  returns FALSE (0000ms, 0685ms total)
T4658 012:316 JLINK_ReadMemU32(0xE0001004, 0x0001 Items, ...) -- CPU is running -- CPU_ReadMem(4 bytes @ 0xE0001004) - Data: 2F CB 6B 0B  returns 0x01 (0001ms, 0686ms total)
T3318 012:331 JLINK_ReadMem (0x20006CDC, 0x0002 Bytes, ...) -- CPU is running -- CPU_ReadMem(2 bytes @ 0x20006CDC) - Data: 00 00  returns 0x00 (0001ms, 0687ms total)
T4658 012:332 JLINK_IsHalted()  returns FALSE (0001ms, 0688ms total)
T4658 012:433 JLINK_IsHalted()  returns FALSE (0001ms, 0688ms total)
T4658 012:534 JLINK_IsHalted()  returns FALSE (0000ms, 0687ms total)
T4658 012:636 JLINK_IsHalted()  returns FALSE (0000ms, 0687ms total)
T4658 012:737 JLINK_IsHalted()  returns FALSE (0001ms, 0688ms total)
T4658 012:838 JLINK_ReadMemU32(0xE0001004, 0x0001 Items, ...) -- CPU is running -- CPU_ReadMem(4 bytes @ 0xE0001004) - Data: 90 60 A5 10  returns 0x01 (0001ms, 0688ms total)
T3318 012:852 JLINK_ReadMem (0x20006CDC, 0x0002 Bytes, ...) -- CPU is running -- CPU_ReadMem(2 bytes @ 0x20006CDC) - Data: 00 00  returns 0x00 (0001ms, 0689ms total)
T4658 012:853 JLINK_IsHalted()  returns FALSE (0001ms, 0690ms total)
T4658 012:954 JLINK_IsHalted()  returns FALSE (0000ms, 0689ms total)
T4658 013:055 JLINK_IsHalted()  returns FALSE (0002ms, 0691ms total)
T4658 013:157 JLINK_IsHalted()  returns FALSE (0000ms, 0689ms total)
T4658 013:258 JLINK_IsHalted()  returns FALSE (0001ms, 0690ms total)
T4658 013:360 JLINK_ReadMemU32(0xE0001004, 0x0001 Items, ...) -- CPU is running -- CPU_ReadMem(4 bytes @ 0xE0001004) - Data: A9 B0 DF 15  returns 0x01 (0000ms, 0689ms total)
T3318 013:372 JLINK_ReadMem (0x20006CDC, 0x0002 Bytes, ...) -- CPU is running -- CPU_ReadMem(2 bytes @ 0x20006CDC) - Data: 00 00  returns 0x00 (0001ms, 0690ms total)
T4658 013:373 JLINK_IsHalted()  returns FALSE (0001ms, 0691ms total)
T4658 013:476 JLINK_IsHalted()  returns FALSE (0000ms, 0690ms total)
T4658 013:577 JLINK_IsHalted()  returns FALSE (0001ms, 0691ms total)
T4658 013:680 JLINK_IsHalted()  returns FALSE (0000ms, 0690ms total)
T4658 013:782 JLINK_IsHalted()  returns FALSE (0000ms, 0690ms total)
T4658 013:883 JLINK_ReadMemU32(0xE0001004, 0x0001 Items, ...) -- CPU is running -- CPU_ReadMem(4 bytes @ 0xE0001004) - Data: 32 B6 1B 1B  returns 0x01 (0001ms, 0691ms total)
T3318 013:892 JLINK_ReadMem (0x20006CDC, 0x0002 Bytes, ...) -- CPU is running -- CPU_ReadMem(2 bytes @ 0x20006CDC) - Data: 00 00  returns 0x00 (0002ms, 0693ms total)
T4658 013:894 JLINK_IsHalted()  returns FALSE (0001ms, 0694ms total)
T4658 013:996 JLINK_IsHalted()  returns FALSE (0001ms, 0694ms total)
T4658 014:098 JLINK_IsHalted()  returns FALSE (0001ms, 0694ms total)
T4658 014:200 JLINK_IsHalted()  returns FALSE (0000ms, 0693ms total)
T4658 014:301 JLINK_IsHalted()  returns FALSE (0001ms, 0694ms total)
T4658 014:403 JLINK_ReadMemU32(0xE0001004, 0x0001 Items, ...) -- CPU is running -- CPU_ReadMem(4 bytes @ 0xE0001004) - Data: 25 15 51 20  returns 0x01 (0000ms, 0693ms total)
T3318 014:413 JLINK_ReadMem (0x20006CDC, 0x0002 Bytes, ...) -- CPU is running -- CPU_ReadMem(2 bytes @ 0x20006CDC) - Data: 00 00  returns 0x00 (0001ms, 0694ms total)
T4658 014:414 JLINK_IsHalted()  returns FALSE (0001ms, 0695ms total)
T4658 014:515 JLINK_IsHalted()  returns FALSE (0000ms, 0694ms total)
T4658 014:617 JLINK_IsHalted()  returns FALSE (0000ms, 0694ms total)
T4658 014:718 JLINK_IsHalted()  returns FALSE (0001ms, 0695ms total)
T4658 014:819 JLINK_IsHalted()  returns FALSE (0001ms, 0695ms total)
T4658 014:920 JLINK_ReadMemU32(0xE0001004, 0x0001 Items, ...) -- CPU is running -- CPU_ReadMem(4 bytes @ 0xE0001004) - Data: FA 1F 7F 25  returns 0x01 (0000ms, 0694ms total)
T3318 014:932 JLINK_ReadMem (0x20006CDC, 0x0002 Bytes, ...) -- CPU is running -- CPU_ReadMem(2 bytes @ 0x20006CDC) - Data: 00 00  returns 0x00 (0001ms, 0695ms total)
T4658 014:933 JLINK_IsHalted()  returns FALSE (0000ms, 0695ms total)
T4658 015:034 JLINK_IsHalted()  returns FALSE (0000ms, 0695ms total)
T4658 015:135 JLINK_IsHalted()  returns FALSE (0001ms, 0696ms total)
T4658 015:236 JLINK_IsHalted()  returns FALSE (0000ms, 0695ms total)
T4658 015:337 JLINK_IsHalted()  returns FALSE (0001ms, 0696ms total)
T4658 015:438 JLINK_ReadMemU32(0xE0001004, 0x0001 Items, ...) -- CPU is running -- CPU_ReadMem(4 bytes @ 0xE0001004) - Data: 5E E0 AF 2A  returns 0x01 (0000ms, 0695ms total)
T3318 015:453 JLINK_ReadMem (0x20006CDC, 0x0002 Bytes, ...) -- CPU is running -- CPU_ReadMem(2 bytes @ 0x20006CDC) - Data: 00 00  returns 0x00 (0001ms, 0696ms total)
T4658 015:454 JLINK_IsHalted()  returns FALSE (0000ms, 0696ms total)
T4658 015:555 JLINK_IsHalted()  returns FALSE (0000ms, 0696ms total)
T4658 015:656 JLINK_IsHalted()  returns FALSE (0000ms, 0696ms total)
T4658 015:758 JLINK_IsHalted()  returns FALSE (0000ms, 0696ms total)
T4658 015:859 JLINK_IsHalted()  returns FALSE (0000ms, 0696ms total)
T4658 015:960 JLINK_ReadMemU32(0xE0001004, 0x0001 Items, ...) -- CPU is running -- CPU_ReadMem(4 bytes @ 0xE0001004) - Data: 3E E1 E9 2F  returns 0x01 (0000ms, 0696ms total)
T3318 015:974 JLINK_ReadMem (0x20006CDC, 0x0002 Bytes, ...) -- CPU is running -- CPU_ReadMem(2 bytes @ 0x20006CDC) - Data: 00 00  returns 0x00 (0001ms, 0697ms total)
T4658 015:975 JLINK_IsHalted()  returns FALSE (0001ms, 0698ms total)
T4658 016:077 JLINK_IsHalted()  returns FALSE (0001ms, 0698ms total)
T4658 016:178 JLINK_IsHalted()  returns FALSE (0000ms, 0697ms total)
T4658 016:280 JLINK_IsHalted()  returns FALSE (0000ms, 0697ms total)
T4658 016:386 JLINK_IsHalted()  returns FALSE (0001ms, 0698ms total)
T4658 016:487 JLINK_ReadMemU32(0xE0001004, 0x0001 Items, ...) -- CPU is running -- CPU_ReadMem(4 bytes @ 0xE0001004) - Data: 57 B6 30 35  returns 0x01 (0001ms, 0698ms total)
T3318 016:504 JLINK_ReadMem (0x20006CDC, 0x0002 Bytes, ...) -- CPU is running -- CPU_ReadMem(2 bytes @ 0x20006CDC) - Data: 00 00  returns 0x00 (0001ms, 0699ms total)
T4658 016:505 JLINK_IsHalted()  returns FALSE (0001ms, 0700ms total)
T4658 016:606 JLINK_IsHalted()  returns FALSE (0000ms, 0699ms total)
T4658 016:708 JLINK_IsHalted()  returns FALSE (0000ms, 0699ms total)
T4658 016:809 JLINK_IsHalted()  returns FALSE (0000ms, 0699ms total)
T4658 016:910 JLINK_IsHalted()  returns FALSE (0000ms, 0699ms total)
T4658 017:012 JLINK_ReadMemU32(0xE0001004, 0x0001 Items, ...) -- CPU is running -- CPU_ReadMem(4 bytes @ 0xE0001004) - Data: 54 5E 72 3A  returns 0x01 (0001ms, 0700ms total)
T3318 017:023 JLINK_ReadMem (0x20006CDC, 0x0002 Bytes, ...) -- CPU is running -- CPU_ReadMem(2 bytes @ 0x20006CDC) - Data: 00 00  returns 0x00 (0002ms, 0702ms total)
T4658 017:025 JLINK_IsHalted()  returns FALSE (0001ms, 0703ms total)
T4658 017:128 JLINK_IsHalted()  returns FALSE (0000ms, 0702ms total)
T4658 017:230 JLINK_IsHalted()  returns FALSE (0000ms, 0702ms total)
T4658 017:332 JLINK_IsHalted()  returns FALSE (0000ms, 0702ms total)
T4658 017:433 JLINK_IsHalted()  returns FALSE (0000ms, 0702ms total)
T4658 017:534 JLINK_ReadMemU32(0xE0001004, 0x0001 Items, ...) -- CPU is running -- CPU_ReadMem(4 bytes @ 0xE0001004) - Data: ED 09 AC 3F  returns 0x01 (0001ms, 0703ms total)
T3318 017:544 JLINK_ReadMem (0x20006CDC, 0x0002 Bytes, ...) -- CPU is running -- CPU_ReadMem(2 bytes @ 0x20006CDC) - Data: 00 00  returns 0x00 (0001ms, 0704ms total)
T4658 017:545 JLINK_IsHalted()  returns FALSE (0001ms, 0705ms total)
T4658 017:647 JLINK_IsHalted()  returns FALSE (0000ms, 0704ms total)
T4658 017:748 JLINK_IsHalted()  returns FALSE (0000ms, 0704ms total)
T4658 017:850 JLINK_IsHalted()  returns FALSE (0000ms, 0704ms total)
T4658 017:951 JLINK_IsHalted()  returns FALSE (0000ms, 0704ms total)
T4658 018:051 JLINK_ReadMemU32(0xE0001004, 0x0001 Items, ...) -- CPU is running -- CPU_ReadMem(4 bytes @ 0xE0001004) - Data: 17 3B DA 44  returns 0x01 (0000ms, 0704ms total)
T3318 018:062 JLINK_ReadMem (0x20006CDC, 0x0002 Bytes, ...) -- CPU is running -- CPU_ReadMem(2 bytes @ 0x20006CDC) - Data: 00 00  returns 0x00 (0001ms, 0705ms total)
T4658 018:063 JLINK_IsHalted()  returns FALSE (0001ms, 0706ms total)
T4658 018:165 JLINK_IsHalted()  returns FALSE (0001ms, 0706ms total)
T4658 018:266 JLINK_IsHalted()  returns FALSE (0001ms, 0706ms total)
T4658 018:368 JLINK_IsHalted()  returns FALSE (0000ms, 0705ms total)
T4658 018:469 JLINK_IsHalted()  returns FALSE (0001ms, 0706ms total)
T4658 018:571 JLINK_ReadMemU32(0xE0001004, 0x0001 Items, ...) -- CPU is running -- CPU_ReadMem(4 bytes @ 0xE0001004) - Data: B1 8D 0F 4A  returns 0x01 (0001ms, 0706ms total)
T3318 018:587 JLINK_ReadMem (0x20006CDC, 0x0002 Bytes, ...) -- CPU is running -- CPU_ReadMem(2 bytes @ 0x20006CDC) - Data: 00 00  returns 0x00 (0001ms, 0707ms total)
T4658 018:588 JLINK_IsHalted()  returns FALSE (0001ms, 0708ms total)
T4658 018:690 JLINK_IsHalted()  returns FALSE (0001ms, 0708ms total)
T4658 018:791 JLINK_IsHalted()  returns FALSE (0001ms, 0708ms total)
T4658 018:893 JLINK_IsHalted()  returns FALSE (0000ms, 0707ms total)
T4658 018:995 JLINK_IsHalted()  returns FALSE (0000ms, 0707ms total)
T4658 019:096 JLINK_ReadMemU32(0xE0001004, 0x0001 Items, ...) -- CPU is running -- CPU_ReadMem(4 bytes @ 0xE0001004) - Data: CB C6 50 4F  returns 0x01 (0001ms, 0708ms total)
T3318 019:111 JLINK_ReadMem (0x20006CDC, 0x0002 Bytes, ...) -- CPU is running -- CPU_ReadMem(2 bytes @ 0x20006CDC) - Data: 00 00  returns 0x00 (0001ms, 0709ms total)
T4658 019:112 JLINK_IsHalted()  returns FALSE (0001ms, 0710ms total)
T4658 019:214 JLINK_IsHalted()  returns FALSE (0000ms, 0709ms total)
T4658 019:315 JLINK_IsHalted()  returns FALSE (0000ms, 0709ms total)
T4658 019:416 JLINK_IsHalted()  returns FALSE (0001ms, 0710ms total)
T4658 019:517 JLINK_IsHalted()  returns TRUE (0006ms, 0715ms total)
T4658 019:523 JLINK_Halt()  returns 0x00 (0000ms, 0709ms total)
T4658 019:523 JLINK_IsHalted()  returns TRUE (0000ms, 0709ms total)
T4658 019:523 JLINK_IsHalted()  returns TRUE (0000ms, 0709ms total)
T4658 019:523 JLINK_IsHalted()  returns TRUE (0000ms, 0709ms total)
T4658 019:523 JLINK_ReadReg(R15 (PC))  returns 0x08006BE0 (0000ms, 0709ms total)
T4658 019:523 JLINK_ReadReg(XPSR)  returns 0x81000000 (0000ms, 0709ms total)
T4658 019:523 JLINK_ClrBPEx(BPHandle = 0x00000004)  returns 0x00 (0000ms, 0709ms total)
T4658 019:523 JLINK_ClrBPEx(BPHandle = 0x00000005)  returns 0x00 (0000ms, 0709ms total)
T4658 019:523 JLINK_ReadMemU32(0xE000ED30, 0x0001 Items, ...) -- CPU_ReadMem(4 bytes @ 0xE000ED30) - Data: 03 00 00 00  returns 0x01 (0002ms, 0711ms total)
T4658 019:525 JLINK_ReadMemU32(0xE0001028, 0x0001 Items, ...) -- CPU_ReadMem(4 bytes @ 0xE0001028) - Data: 00 00 00 00  returns 0x01 (0000ms, 0711ms total)
T4658 019:525 JLINK_ReadMemU32(0xE0001038, 0x0001 Items, ...) -- CPU_ReadMem(4 bytes @ 0xE0001038) - Data: 00 02 00 00  returns 0x01 (0001ms, 0712ms total)
T4658 019:526 JLINK_ReadMemU32(0xE0001048, 0x0001 Items, ...) -- CPU_ReadMem(4 bytes @ 0xE0001048) - Data: 00 00 00 00  returns 0x01 (0001ms, 0713ms total)
T4658 019:527 JLINK_ReadMemU32(0xE0001058, 0x0001 Items, ...) -- CPU_ReadMem(4 bytes @ 0xE0001058) - Data: 00 00 00 00  returns 0x01 (0000ms, 0713ms total)
T4658 019:527 JLINK_ReadReg(R0)  returns 0x00000000 (0000ms, 0713ms total)
T4658 019:527 JLINK_ReadReg(R1)  returns 0x08006BB1 (0000ms, 0713ms total)
T4658 019:527 JLINK_ReadReg(R2)  returns 0x20001EAC (0000ms, 0713ms total)
T4658 019:527 JLINK_ReadReg(R3)  returns 0x00000003 (0000ms, 0713ms total)
T4658 019:527 JLINK_ReadReg(R4)  returns 0x20002178 (0000ms, 0713ms total)
T4658 019:527 JLINK_ReadReg(R5)  returns 0x00000000 (0000ms, 0713ms total)
T4658 019:527 JLINK_ReadReg(R6)  returns 0x20001814 (0000ms, 0713ms total)
T4658 019:527 JLINK_ReadReg(R7)  returns 0x00000000 (0000ms, 0713ms total)
T4658 019:528 JLINK_ReadReg(R8)  returns 0x00000000 (0000ms, 0714ms total)
T4658 019:528 JLINK_ReadReg(R9)  returns 0x00000000 (0000ms, 0714ms total)
T4658 019:528 JLINK_ReadReg(R10)  returns 0x00000000 (0000ms, 0714ms total)
T4658 019:528 JLINK_ReadReg(R11)  returns 0x00000000 (0000ms, 0714ms total)
T4658 019:528 JLINK_ReadReg(R12)  returns 0x00000000 (0000ms, 0714ms total)
T4658 019:528 JLINK_ReadReg(R13 (SP))  returns 0x200097B8 (0000ms, 0714ms total)
T4658 019:528 JLINK_ReadReg(R14)  returns 0x08013BB1 (0000ms, 0714ms total)
T4658 019:528 JLINK_ReadReg(R15 (PC))  returns 0x08006BE0 (0000ms, 0714ms total)
T4658 019:528 JLINK_ReadReg(XPSR)  returns 0x81000000 (0000ms, 0714ms total)
T4658 019:528 JLINK_ReadReg(MSP)  returns 0x20010C90 (0000ms, 0714ms total)
T4658 019:528 JLINK_ReadReg(PSP)  returns 0x200097B8 (0000ms, 0714ms total)
T4658 019:528 JLINK_ReadReg(CFBP)  returns 0x06000000 (0000ms, 0714ms total)
T4658 019:528 JLINK_ReadReg(FPSCR)  returns 0x20000011 (0010ms, 0724ms total)
T4658 019:538 JLINK_ReadReg(FPS0)  returns 0x00000000 (0000ms, 0724ms total)
T4658 019:538 JLINK_ReadReg(FPS1)  returns 0x3F090E00 (0000ms, 0724ms total)
T4658 019:538 JLINK_ReadReg(FPS2)  returns 0x00000000 (0000ms, 0724ms total)
T4658 019:538 JLINK_ReadReg(FPS3)  returns 0x00000000 (0000ms, 0724ms total)
T4658 019:538 JLINK_ReadReg(FPS4)  returns 0x00000000 (0000ms, 0724ms total)
T4658 019:538 JLINK_ReadReg(FPS5)  returns 0x00000000 (0000ms, 0724ms total)
T4658 019:538 JLINK_ReadReg(FPS6)  returns 0x00000000 (0000ms, 0724ms total)
T4658 019:538 JLINK_ReadReg(FPS7)  returns 0x00000000 (0000ms, 0724ms total)
T4658 019:538 JLINK_ReadReg(FPS8)  returns 0x00000000 (0000ms, 0724ms total)
T4658 019:538 JLINK_ReadReg(FPS9)  returns 0x00000000 (0000ms, 0724ms total)
T4658 019:538 JLINK_ReadReg(FPS10)  returns 0x00000000 (0000ms, 0724ms total)
T4658 019:538 JLINK_ReadReg(FPS11)  returns 0x00000000 (0000ms, 0724ms total)
T4658 019:538 JLINK_ReadReg(FPS12)  returns 0x00000000 (0000ms, 0724ms total)
T4658 019:538 JLINK_ReadReg(FPS13)  returns 0x00000000 (0000ms, 0724ms total)
T4658 019:538 JLINK_ReadReg(FPS14)  returns 0x00000000 (0000ms, 0724ms total)
T4658 019:538 JLINK_ReadReg(FPS15)  returns 0x00000000 (0000ms, 0724ms total)
T4658 019:538 JLINK_ReadReg(FPS16)  returns 0x00000000 (0000ms, 0724ms total)
T4658 019:538 JLINK_ReadReg(FPS17)  returns 0x00000000 (0001ms, 0725ms total)
T4658 019:539 JLINK_ReadReg(FPS18)  returns 0x00000000 (0000ms, 0725ms total)
T4658 019:539 JLINK_ReadReg(FPS19)  returns 0x00000000 (0000ms, 0725ms total)
T4658 019:539 JLINK_ReadReg(FPS20)  returns 0x00000000 (0000ms, 0725ms total)
T4658 019:539 JLINK_ReadReg(FPS21)  returns 0x00000000 (0000ms, 0725ms total)
T4658 019:539 JLINK_ReadReg(FPS22)  returns 0x00000000 (0000ms, 0725ms total)
T4658 019:539 JLINK_ReadReg(FPS23)  returns 0x00000000 (0000ms, 0725ms total)
T4658 019:539 JLINK_ReadReg(FPS24)  returns 0x00000000 (0000ms, 0725ms total)
T4658 019:539 JLINK_ReadReg(FPS25)  returns 0x00000000 (0000ms, 0725ms total)
T4658 019:539 JLINK_ReadReg(FPS26)  returns 0x00000000 (0000ms, 0725ms total)
T4658 019:539 JLINK_ReadReg(FPS27)  returns 0x00000000 (0000ms, 0725ms total)
T4658 019:539 JLINK_ReadReg(FPS28)  returns 0x00000000 (0000ms, 0725ms total)
T4658 019:539 JLINK_ReadReg(FPS29)  returns 0x00000000 (0000ms, 0725ms total)
T4658 019:539 JLINK_ReadReg(FPS30)  returns 0x00000000 (0000ms, 0725ms total)
T4658 019:539 JLINK_ReadReg(FPS31)  returns 0x00000000 (0000ms, 0725ms total)
T3318 019:540 JLINK_ReadMem (0x200097D4, 0x0004 Bytes, ...) -- CPU_ReadMem(64 bytes @ 0x200097C0) -- Updating C cache (64 bytes @ 0x200097C0) -- Read from C cache (4 bytes @ 0x200097D4) - Data: B1 3B 01 08  returns 0x00 (0002ms, 0727ms total)
T3318 019:543 JLINK_ReadMem (0x200097C0, 0x0004 Bytes, ...) -- Read from C cache (4 bytes @ 0x200097C0) - Data: E4 1D 00 20  returns 0x00 (0000ms, 0727ms total)
T3318 019:543 JLINK_ReadMem (0x200097C4, 0x0004 Bytes, ...) -- Read from C cache (4 bytes @ 0x200097C4) - Data: 0B 00 00 00  returns 0x00 (0000ms, 0727ms total)
T3318 019:543 JLINK_ReadMem (0x200097C8, 0x0004 Bytes, ...) -- Read from C cache (4 bytes @ 0x200097C8) - Data: 14 18 00 20  returns 0x00 (0001ms, 0728ms total)
T3318 019:544 JLINK_ReadMem (0x200097CC, 0x0004 Bytes, ...) -- Read from C cache (4 bytes @ 0x200097CC) - Data: 00 00 00 00  returns 0x00 (0000ms, 0728ms total)
T3318 019:544 JLINK_ReadMem (0x200097D0, 0x0004 Bytes, ...) -- Read from C cache (4 bytes @ 0x200097D0) - Data: 00 00 00 00  returns 0x00 (0000ms, 0728ms total)
T3318 019:544 JLINK_ReadMem (0x200097E4, 0x0004 Bytes, ...) -- Read from C cache (4 bytes @ 0x200097E4) - Data: 87 3D 01 08  returns 0x00 (0000ms, 0728ms total)
T3318 019:544 JLINK_ReadMem (0x200097D8, 0x0004 Bytes, ...) -- Read from C cache (4 bytes @ 0x200097D8) - Data: 00 00 00 00  returns 0x00 (0000ms, 0728ms total)
T3318 019:544 JLINK_ReadMem (0x200097DC, 0x0004 Bytes, ...) -- Read from C cache (4 bytes @ 0x200097DC) - Data: 00 00 00 00  returns 0x00 (0000ms, 0728ms total)
T3318 019:544 JLINK_ReadMem (0x200097E0, 0x0004 Bytes, ...) -- Read from C cache (4 bytes @ 0x200097E0) - Data: 00 00 00 00  returns 0x00 (0000ms, 0728ms total)
T3318 019:544 JLINK_ReadMem (0x200097EC, 0x0004 Bytes, ...) -- Read from C cache (4 bytes @ 0x200097EC) - Data: 91 DA 00 08  returns 0x00 (0000ms, 0728ms total)
T3318 019:545 JLINK_ReadMem (0x200097E8, 0x0004 Bytes, ...) -- Read from C cache (4 bytes @ 0x200097E8) - Data: 00 00 00 00  returns 0x00 (0000ms, 0728ms total)
T3318 019:545 JLINK_ReadMem (0x200097F4, 0x0004 Bytes, ...) -- Read from C cache (4 bytes @ 0x200097F4) - Data: 99 8F 00 08  returns 0x00 (0000ms, 0728ms total)
T3318 019:545 JLINK_ReadMem (0x200097F0, 0x0004 Bytes, ...) -- Read from C cache (4 bytes @ 0x200097F0) - Data: 00 00 00 00  returns 0x00 (0001ms, 0729ms total)
T3318 019:548 JLINK_ReadMem (0x20001348, 0x0001 Bytes, ...) -- CPU_ReadMem(64 bytes @ 0x20001340) -- Updating C cache (64 bytes @ 0x20001340) -- Read from C cache (1 bytes @ 0x20001348) - Data: 00  returns 0x00 (0002ms, 0731ms total)
T3318 019:550 JLINK_ReadMem (0x200097BC, 0x0002 Bytes, ...) -- CPU_ReadMem(64 bytes @ 0x20009780) -- Updating C cache (64 bytes @ 0x20009780) -- Read from C cache (2 bytes @ 0x200097BC) - Data: 08 00  returns 0x00 (0002ms, 0733ms total)
T3318 019:555 JLINK_ReadMem (0x200035F0, 0x0008 Bytes, ...) -- CPU_ReadMem(64 bytes @ 0x200035C0) -- Updating C cache (64 bytes @ 0x200035C0) -- Read from C cache (8 bytes @ 0x200035F0) - Data: 00 D3 6C 38 00 00 00 00  returns 0x00 (0003ms, 0736ms total)
T3318 019:586 JLINK_ReadMem (0x200035F8, 0x0008 Bytes, ...) -- Read from C cache (8 bytes @ 0x200035F8) - Data: E8 DD C5 F3 00 00 00 00  returns 0x00 (0000ms, 0736ms total)
T3318 019:616 JLINK_ReadMem (0x20003608, 0x0008 Bytes, ...) -- CPU_ReadMem(64 bytes @ 0x20003600) -- Updating C cache (64 bytes @ 0x20003600) -- Read from C cache (8 bytes @ 0x20003608) - Data: 80 75 47 68 00 00 00 00  returns 0x00 (0003ms, 0739ms total)
T3318 019:647 JLINK_ReadMem (0x20003610, 0x0008 Bytes, ...) -- Read from C cache (8 bytes @ 0x20003610) - Data: 00 C7 48 68 00 00 00 00  returns 0x00 (0000ms, 0739ms total)
T3318 019:672 JLINK_ReadMem (0x20006CDC, 0x0002 Bytes, ...) -- CPU_ReadMem(64 bytes @ 0x20006CC0) -- Updating C cache (64 bytes @ 0x20006CC0) -- Read from C cache (2 bytes @ 0x20006CDC) - Data: 00 00  returns 0x00 (0002ms, 0741ms total)
T3318 019:674 JLINK_ReadMem (0x08006BCC, 0x0034 Bytes, ...) -- CPU_ReadMem(64 bytes @ 0x08006BC0) -- Updating C cache (64 bytes @ 0x08006BC0) -- Read from C cache (52 bytes @ 0x08006BCC) - Data: 44 F6 5E 30 00 5D 06 28 6E D2 DF E8 00 F0 03 16 ...  returns 0x00 (0002ms, 0743ms total)
T3318 019:676 JLINK_ReadMem (0x08006C00, 0x0008 Bytes, ...) -- CPU_ReadMem(64 bytes @ 0x08006C00) -- Updating C cache (64 bytes @ 0x08006C00) -- Read from C cache (8 bytes @ 0x08006C00) - Data: AB 49 08 70 2E E1 00 21  returns 0x00 (0002ms, 0745ms total)
T4658 022:873 JLINK_Step() -- Read from C cache (2 bytes @ 0x08006BE0) -- CPU_ReadMem(4 bytes @ 0xE0001004) -- Read from C cache (2 bytes @ 0x08006BE2) -- Simulated  returns 0x00 (0002ms, 0747ms total)
T4658 022:875 JLINK_ReadReg(R15 (PC))  returns 0x08006BE4 (0000ms, 0747ms total)
T4658 022:875 JLINK_ReadReg(XPSR)  returns 0x81000000 (0000ms, 0747ms total)
T4658 022:875 JLINK_SetBPEx(Addr = 0x08006BE0, Type = 0xFFFFFFF2)  returns 0x00000006 (0000ms, 0747ms total)
T4658 022:875 JLINK_SetBPEx(Addr = 0x08006C06, Type = 0xFFFFFFF2)  returns 0x00000007 (0000ms, 0747ms total)
T4658 022:875 JLINK_Go() -- CPU_WriteMem(4 bytes @ 0xE0002000) -- CPU_WriteMem(4 bytes @ 0xE0002000) -- CPU_ReadMem(4 bytes @ 0xE0001000) -- CPU_WriteMem(4 bytes @ 0xE0001004) (0005ms, 0752ms total)
T4658 022:981 JLINK_IsHalted()  returns TRUE (0005ms, 0757ms total)
T4658 022:986 JLINK_Halt()  returns 0x00 (0000ms, 0752ms total)
T4658 022:986 JLINK_IsHalted()  returns TRUE (0000ms, 0752ms total)
T4658 022:986 JLINK_IsHalted()  returns TRUE (0000ms, 0752ms total)
T4658 022:986 JLINK_IsHalted()  returns TRUE (0001ms, 0753ms total)
T4658 022:987 JLINK_ReadReg(R15 (PC))  returns 0x08006C06 (0000ms, 0752ms total)
T4658 022:987 JLINK_ReadReg(XPSR)  returns 0x81000000 (0000ms, 0752ms total)
T4658 022:987 JLINK_ClrBPEx(BPHandle = 0x00000006)  returns 0x00 (0000ms, 0752ms total)
T4658 022:987 JLINK_ClrBPEx(BPHandle = 0x00000007)  returns 0x00 (0000ms, 0752ms total)
T4658 022:987 JLINK_ReadMemU32(0xE000ED30, 0x0001 Items, ...) -- CPU_ReadMem(4 bytes @ 0xE000ED30) - Data: 03 00 00 00  returns 0x01 (0001ms, 0753ms total)
T4658 022:988 JLINK_ReadMemU32(0xE0001028, 0x0001 Items, ...) -- CPU_ReadMem(4 bytes @ 0xE0001028) - Data: 00 00 00 00  returns 0x01 (0000ms, 0753ms total)
T4658 022:988 JLINK_ReadMemU32(0xE0001038, 0x0001 Items, ...) -- CPU_ReadMem(4 bytes @ 0xE0001038) - Data: 00 02 00 00  returns 0x01 (0002ms, 0755ms total)
T4658 022:990 JLINK_ReadMemU32(0xE0001048, 0x0001 Items, ...) -- CPU_ReadMem(4 bytes @ 0xE0001048) - Data: 00 00 00 00  returns 0x01 (0001ms, 0756ms total)
T4658 022:991 JLINK_ReadMemU32(0xE0001058, 0x0001 Items, ...) -- CPU_ReadMem(4 bytes @ 0xE0001058) - Data: 00 00 00 00  returns 0x01 (0001ms, 0757ms total)
T4658 022:992 JLINK_ReadReg(R0)  returns 0x00000001 (0000ms, 0757ms total)
T4658 022:992 JLINK_ReadReg(R1)  returns 0x08006BB1 (0000ms, 0757ms total)
T4658 022:992 JLINK_ReadReg(R2)  returns 0x20001EAC (0000ms, 0757ms total)
T4658 022:992 JLINK_ReadReg(R3)  returns 0x00000000 (0000ms, 0757ms total)
T4658 022:992 JLINK_ReadReg(R4)  returns 0x20002178 (0000ms, 0757ms total)
T4658 022:992 JLINK_ReadReg(R5)  returns 0x00000000 (0000ms, 0757ms total)
T4658 022:992 JLINK_ReadReg(R6)  returns 0x20001814 (0000ms, 0757ms total)
T4658 022:992 JLINK_ReadReg(R7)  returns 0x00000000 (0000ms, 0757ms total)
T4658 022:992 JLINK_ReadReg(R8)  returns 0x00000000 (0000ms, 0757ms total)
T4658 022:992 JLINK_ReadReg(R9)  returns 0x00000000 (0001ms, 0758ms total)
T4658 022:993 JLINK_ReadReg(R10)  returns 0x00000000 (0000ms, 0758ms total)
T4658 022:993 JLINK_ReadReg(R11)  returns 0x00000000 (0000ms, 0758ms total)
T4658 022:993 JLINK_ReadReg(R12)  returns 0x00000000 (0000ms, 0758ms total)
T4658 022:993 JLINK_ReadReg(R13 (SP))  returns 0x200097B8 (0000ms, 0758ms total)
T4658 022:993 JLINK_ReadReg(R14)  returns 0x08013BB1 (0000ms, 0758ms total)
T4658 022:993 JLINK_ReadReg(R15 (PC))  returns 0x08006C06 (0000ms, 0758ms total)
T4658 022:993 JLINK_ReadReg(XPSR)  returns 0x81000000 (0000ms, 0758ms total)
T4658 022:993 JLINK_ReadReg(MSP)  returns 0x20010C90 (0000ms, 0758ms total)
T4658 022:993 JLINK_ReadReg(PSP)  returns 0x200097B8 (0000ms, 0758ms total)
T4658 022:993 JLINK_ReadReg(CFBP)  returns 0x06000000 (0000ms, 0758ms total)
T4658 022:993 JLINK_ReadReg(FPSCR)  returns 0x80000011 (0008ms, 0766ms total)
T4658 023:001 JLINK_ReadReg(FPS0)  returns 0x00000000 (0000ms, 0766ms total)
T4658 023:001 JLINK_ReadReg(FPS1)  returns 0x3D370000 (0000ms, 0766ms total)
T4658 023:001 JLINK_ReadReg(FPS2)  returns 0x00000000 (0001ms, 0767ms total)
T4658 023:002 JLINK_ReadReg(FPS3)  returns 0x00000000 (0000ms, 0767ms total)
T4658 023:002 JLINK_ReadReg(FPS4)  returns 0x00000000 (0000ms, 0767ms total)
T4658 023:002 JLINK_ReadReg(FPS5)  returns 0x00000000 (0000ms, 0767ms total)
T4658 023:002 JLINK_ReadReg(FPS6)  returns 0x00000000 (0000ms, 0767ms total)
T4658 023:002 JLINK_ReadReg(FPS7)  returns 0x00000000 (0000ms, 0767ms total)
T4658 023:002 JLINK_ReadReg(FPS8)  returns 0x00000000 (0000ms, 0767ms total)
T4658 023:002 JLINK_ReadReg(FPS9)  returns 0x00000000 (0000ms, 0767ms total)
T4658 023:002 JLINK_ReadReg(FPS10)  returns 0x00000000 (0000ms, 0767ms total)
T4658 023:002 JLINK_ReadReg(FPS11)  returns 0x00000000 (0000ms, 0767ms total)
T4658 023:002 JLINK_ReadReg(FPS12)  returns 0x00000000 (0000ms, 0767ms total)
T4658 023:002 JLINK_ReadReg(FPS13)  returns 0x00000000 (0000ms, 0767ms total)
T4658 023:002 JLINK_ReadReg(FPS14)  returns 0x00000000 (0000ms, 0767ms total)
T4658 023:002 JLINK_ReadReg(FPS15)  returns 0x00000000 (0000ms, 0767ms total)
T4658 023:002 JLINK_ReadReg(FPS16)  returns 0x00000000 (0000ms, 0767ms total)
T4658 023:002 JLINK_ReadReg(FPS17)  returns 0x00000000 (0000ms, 0767ms total)
T4658 023:002 JLINK_ReadReg(FPS18)  returns 0x00000000 (0000ms, 0767ms total)
T4658 023:002 JLINK_ReadReg(FPS19)  returns 0x00000000 (0000ms, 0767ms total)
T4658 023:002 JLINK_ReadReg(FPS20)  returns 0x00000000 (0000ms, 0767ms total)
T4658 023:002 JLINK_ReadReg(FPS21)  returns 0x00000000 (0000ms, 0767ms total)
T4658 023:002 JLINK_ReadReg(FPS22)  returns 0x00000000 (0000ms, 0767ms total)
T4658 023:002 JLINK_ReadReg(FPS23)  returns 0x00000000 (0001ms, 0768ms total)
T4658 023:003 JLINK_ReadReg(FPS24)  returns 0x00000000 (0000ms, 0768ms total)
T4658 023:003 JLINK_ReadReg(FPS25)  returns 0x00000000 (0000ms, 0768ms total)
T4658 023:003 JLINK_ReadReg(FPS26)  returns 0x00000000 (0000ms, 0768ms total)
T4658 023:003 JLINK_ReadReg(FPS27)  returns 0x00000000 (0000ms, 0768ms total)
T4658 023:003 JLINK_ReadReg(FPS28)  returns 0x00000000 (0000ms, 0768ms total)
T4658 023:003 JLINK_ReadReg(FPS29)  returns 0x00000000 (0000ms, 0768ms total)
T4658 023:003 JLINK_ReadReg(FPS30)  returns 0x00000000 (0000ms, 0768ms total)
T4658 023:003 JLINK_ReadReg(FPS31)  returns 0x00000000 (0000ms, 0768ms total)
T3318 023:003 JLINK_ReadMem (0x200097D4, 0x0004 Bytes, ...) -- CPU_ReadMem(64 bytes @ 0x200097C0) -- Updating C cache (64 bytes @ 0x200097C0) -- Read from C cache (4 bytes @ 0x200097D4) - Data: B1 3B 01 08  returns 0x00 (0002ms, 0770ms total)
T3318 023:005 JLINK_ReadMem (0x200097C0, 0x0004 Bytes, ...) -- Read from C cache (4 bytes @ 0x200097C0) - Data: E4 1D 00 20  returns 0x00 (0000ms, 0770ms total)
T3318 023:005 JLINK_ReadMem (0x200097C4, 0x0004 Bytes, ...) -- Read from C cache (4 bytes @ 0x200097C4) - Data: 0B 00 00 00  returns 0x00 (0000ms, 0770ms total)
T3318 023:005 JLINK_ReadMem (0x200097C8, 0x0004 Bytes, ...) -- Read from C cache (4 bytes @ 0x200097C8) - Data: 14 18 00 20  returns 0x00 (0000ms, 0770ms total)
T3318 023:005 JLINK_ReadMem (0x200097CC, 0x0004 Bytes, ...) -- Read from C cache (4 bytes @ 0x200097CC) - Data: 00 00 00 00  returns 0x00 (0000ms, 0770ms total)
T3318 023:005 JLINK_ReadMem (0x200097D0, 0x0004 Bytes, ...) -- Read from C cache (4 bytes @ 0x200097D0) - Data: 00 00 00 00  returns 0x00 (0000ms, 0770ms total)
T3318 023:005 JLINK_ReadMem (0x200097E4, 0x0004 Bytes, ...) -- Read from C cache (4 bytes @ 0x200097E4) - Data: 87 3D 01 08  returns 0x00 (0000ms, 0770ms total)
T3318 023:005 JLINK_ReadMem (0x200097D8, 0x0004 Bytes, ...) -- Read from C cache (4 bytes @ 0x200097D8) - Data: 00 00 00 00  returns 0x00 (0000ms, 0770ms total)
T3318 023:005 JLINK_ReadMem (0x200097DC, 0x0004 Bytes, ...) -- Read from C cache (4 bytes @ 0x200097DC) - Data: 00 00 00 00  returns 0x00 (0000ms, 0770ms total)
T3318 023:005 JLINK_ReadMem (0x200097E0, 0x0004 Bytes, ...) -- Read from C cache (4 bytes @ 0x200097E0) - Data: 00 00 00 00  returns 0x00 (0000ms, 0770ms total)
